
T04C0 000:099 SEGGER J-Link V6.10i Log File (0000ms, 0028ms total)
T04C0 000:099 DLL Compiled: Oct 25 2016 19:31:51 (0000ms, 0028ms total)
T04C0 000:099 Logging started @ 2019-05-16 07:33 (0000ms, 0028ms total)
T04C0 000:099 JLINK_SetWarnOutHandler(...) (0000ms, 0028ms total)
T04C0 000:099 JLINK_OpenEx(...)
Firmware: J-Link ARM-OB STM32 compiled Aug 22 2012 19:52:04
Hardware: V7.00
S/N: 20090928
Feature(s): RDI,FlashDL,FlashBP,JFlash,GDBFullWEBSRV Webserver running on local port 19080 (0014ms, 0042ms total)
T04C0 000:099   returns O.K. (0014ms, 0042ms total)
T04C0 000:113 JLINK_SetErrorOutHandler(...) (0000ms, 0042ms total)
T04C0 000:113 JLINK_ExecCommand("ProjectFile = "G:\GIT_DATA\SOIDIOR_PRIVATE\RM-infantry\USER\JLinkSettings.ini"", ...). Device "STM32F427II" selected.  returns 0x00 (0133ms, 0175ms total)
T04C0 000:248 JLINK_ExecCommand("Device = STM32F427IIHx", ...). Device "STM32F427II" selected.  returns 0x00 (0005ms, 0181ms total)
T04C0 000:254 JLINK_ExecCommand("DisableConnectionTimeout", ...).   returns 0x01 (0000ms, 0181ms total)
T04C0 000:254 JLINK_GetHardwareVersion()  returns 0x11170 (0000ms, 0181ms total)
T04C0 000:254 JLINK_GetDLLVersion()  returns 61009 (0000ms, 0181ms total)
T04C0 000:254 JLINK_GetFirmwareString(...) (0000ms, 0181ms total)
T04C0 000:266 JLINK_GetDLLVersion()  returns 61009 (0000ms, 0181ms total)
T04C0 000:266 JLINK_GetCompileDateTime() (0000ms, 0181ms total)
T04C0 000:271 JLINK_GetFirmwareString(...) (0001ms, 0182ms total)
T04C0 000:275 JLINK_GetHardwareVersion()  returns 0x11170 (0000ms, 0182ms total)
T04C0 000:286 JLINK_TIF_Select(JLINKARM_TIF_SWD)  returns 0x00 (0001ms, 0183ms total)
T04C0 000:287 JLINK_SetSpeed(500) (0000ms, 0183ms total)
T04C0 000:287 JLINK_GetId() >0x108 TIF>Found SWD-DP with ID 0x2BA01477 >0x0D TIF> >0x28 TIF> >0x0D TIF> >0x28 TIF> >0x0D TIF> >0x28 TIF> >0x0D TIF> >0x28 TIF> >0x0D TIF> >0x21 TIF> >0x0D TIF> >0x28 TIF> >0x0D TIF> >0x28 TIF> >0x0D TIF> >0x28 TIF> >0x0D TIF> >0x21 TIF> >0x0D TIF> >0x21 TIF> >0x0D TIF> >0x28 TIF> >0x0D TIF> >0x21 TIF> >0x0D TIF> >0x21 TIF> >0x0D TIF> >0x28 TIF> >0x0D TIF> >0x21 TIF> >0x0D TIF> >0x21 TIF> >0x0D TIF> >0x28 TIF> >0x0D TIF> >0x21 TIF> >0x0D TIF> >0x21 TIF> >0x0D TIF>
 >0x28 TIF> >0x0D TIF> >0x21 TIF> >0x0D TIF> >0x21 TIF> >0x0D TIF> >0x28 TIF> >0x0D TIF> >0x21 TIF> >0x0D TIF> >0x21 TIF> >0x0D TIF> >0x28 TIF> >0x0D TIF> >0x21 TIF> >0x0D TIF> >0x21 TIF> >0x108 TIF>Found SWD-DP with ID 0x2BA01477 >0x0D TIF> >0x28 TIF> >0x0D TIF> >0x28 TIF> >0x0D TIF> >0x28 TIF> >0x0D TIF> >0x28 TIF> >0x0D TIF> >0x21 TIF> >0x0D TIF> >0x28 TIF> >0x0D TIF> >0x28 TIF> >0x0D TIF> >0x21 TIF> >0x0D TIF> >0x21 TIF> >0x0D TIF> >0x21 TIF>AP-IDR: 0x24770011, Type: AHB-AP >0x0D TIF> >0x28 TIF>
 >0x0D TIF> >0x28 TIF> >0x0D TIF> >0x28 TIF> >0x0D TIF> >0x21 TIF> >0x0D TIF> >0x21 TIF> >0x0D TIF> >0x28 TIF> >0x0D TIF> >0x21 TIF> >0x0D TIF> >0x21 TIF>Found Cortex-M4 r0p1, Little endian. -- CPU_ReadMem(4 bytes @ 0xE000EDF0) -- CPU_ReadMem(4 bytes @ 0xE0002000)FPUnit: 6 code (BP) slots and 2 literal slots -- CPU_ReadMem(4 bytes @ 0xE000EDFC) -- CPU_ReadMem(4 bytes @ 0xE0001000) -- CPU_WriteMem(4 bytes @ 0xE0001000) -- CPU_ReadMem(4 bytes @ 0xE000ED88) -- CPU_WriteMem(4 bytes @ 0xE000ED88)
 -- CPU_ReadMem(4 bytes @ 0xE000ED88) -- CPU_WriteMem(4 bytes @ 0xE000ED88)CoreSight components:ROMTbl 0 @ E00FF000 -- CPU_ReadMem(16 bytes @ 0xE00FF000) -- CPU_ReadMem(16 bytes @ 0xE000EFF0) -- CPU_ReadMem(16 bytes @ 0xE000EFE0)ROMTbl 0 [0]: FFF0F000, CID: B105E00D, PID: 000BB00C SCS -- CPU_ReadMem(16 bytes @ 0xE0001FF0) -- CPU_ReadMem(16 bytes @ 0xE0001FE0)ROMTbl 0 [1]: FFF02000, CID: B105E00D, PID: 003BB002 DWT -- CPU_ReadMem(16 bytes @ 0xE0002FF0) -- CPU_ReadMem(16 bytes @ 0xE0002FE0)
ROMTbl 0 [2]: FFF03000, CID: B105E00D, PID: 002BB003 FPB -- CPU_ReadMem(16 bytes @ 0xE0000FF0) -- CPU_ReadMem(16 bytes @ 0xE0000FE0)ROMTbl 0 [3]: FFF01000, CID: B105E00D, PID: 003BB001 ITM -- CPU_ReadMem(16 bytes @ 0xE00FF010) -- CPU_ReadMem(16 bytes @ 0xE0040FF0) -- CPU_ReadMem(16 bytes @ 0xE0040FE0)ROMTbl 0 [4]: FFF41000, CID: B105900D, PID: 000BB9A1 TPIU -- CPU_ReadMem(16 bytes @ 0xE0041FF0) -- CPU_ReadMem(16 bytes @ 0xE0041FE0)ROMTbl 0 [5]: FFF42000, CID: B105900D, PID: 000BB925 ETM >0x0D TIF>
 >0x21 TIF>  returns 0x2BA01477 (0243ms, 0426ms total)
T04C0 000:530 JLINK_GetDLLVersion()  returns 61009 (0000ms, 0426ms total)
T04C0 000:530 JLINK_CORE_GetFound()  returns 0xE0000FF (0000ms, 0426ms total)
T04C0 000:530 JLINK_GetDebugInfo(0x100) -- Value=0xE00FF000  returns 0x00 (0000ms, 0426ms total)
T04C0 000:543 JLINK_GetDebugInfo(0x100) -- Value=0xE00FF000  returns 0x00 (0000ms, 0426ms total)
T04C0 000:543 JLINK_GetDebugInfo(0x101) -- Value=0xE0041000  returns 0x00 (0000ms, 0426ms total)
T04C0 000:543 JLINK_GetDebugInfo(0x102) -- Value=0x00000000  returns 0x00 (0000ms, 0426ms total)
T04C0 000:543 JLINK_GetDebugInfo(0x103) -- Value=0xE0040000  returns 0x00 (0000ms, 0426ms total)
T04C0 000:543 JLINK_GetDebugInfo(0x104) -- Value=0xE0000000  returns 0x00 (0000ms, 0426ms total)
T04C0 000:543 JLINK_GetDebugInfo(0x105) -- Value=0xE0001000  returns 0x00 (0000ms, 0426ms total)
T04C0 000:543 JLINK_GetDebugInfo(0x106) -- Value=0xE0002000  returns 0x00 (0000ms, 0426ms total)
T04C0 000:543 JLINK_GetDebugInfo(0x107) -- Value=0xE000E000  returns 0x00 (0000ms, 0426ms total)
T04C0 000:544 JLINK_GetDebugInfo(0x10C) -- Value=0xE000EDF0  returns 0x00 (0000ms, 0426ms total)
T04C0 000:544 JLINK_ReadMemU32(0xE000EF40, 0x0001 Items, ...) -- CPU is running -- CPU_ReadMem(4 bytes @ 0xE000EF40) - Data: 21 00 11 10  returns 0x01 (0001ms, 0427ms total)
T04C0 000:545 JLINK_ReadMemU32(0xE000EF44, 0x0001 Items, ...) -- CPU is running -- CPU_ReadMem(4 bytes @ 0xE000EF44) - Data: 11 00 00 11  returns 0x01 (0006ms, 0433ms total)
T04C0 000:551 JLINK_ReadMemU32(0xE000ED00, 0x0001 Items, ...) -- CPU is running -- CPU_ReadMem(4 bytes @ 0xE000ED00) - Data: 41 C2 0F 41  returns 0x01 (0001ms, 0434ms total)
T04C0 000:552 JLINK_SetResetType(JLINKARM_RESET_TYPE_NORMAL)  returns JLINKARM_RESET_TYPE_NORMAL (0000ms, 0434ms total)
T04C0 000:552 JLINK_Reset() -- CPU is running -- CPU_WriteMem(4 bytes @ 0xE000EDF0) -- CPU is running -- CPU_WriteMem(4 bytes @ 0xE000EDFC) >0x35 TIF> -- CPU is running -- CPU_WriteMem(4 bytes @ 0xE000ED0C) -- CPU is running -- CPU_ReadMem(4 bytes @ 0xE000EDF0) -- CPU is running -- CPU_ReadMem(4 bytes @ 0xE000EDF0) -- CPU is running -- CPU_WriteMem(4 bytes @ 0xE000EDF0) -- CPU is running -- CPU_WriteMem(4 bytes @ 0xE000EDFC) -- CPU is running -- CPU_ReadMem(4 bytes @ 0xE000EDF0)
 -- CPU_WriteMem(4 bytes @ 0xE0002000) -- CPU_ReadMem(4 bytes @ 0xE000EDFC) -- CPU_ReadMem(4 bytes @ 0xE0001000) (0038ms, 0472ms total)
T04C0 000:590 JLINK_Halt()  returns 0x00 (0000ms, 0472ms total)
T04C0 000:590 JLINK_IsHalted()  returns TRUE (0000ms, 0472ms total)
T04C0 000:590 JLINK_ReadMemU32(0xE000EDF0, 0x0001 Items, ...) -- CPU_ReadMem(4 bytes @ 0xE000EDF0) - Data: 03 00 03 00  returns 0x01 (0005ms, 0477ms total)
T04C0 000:595 JLINK_WriteU32(0xE000EDF0, 0xA05F0003) -- CPU_WriteMem(4 bytes @ 0xE000EDF0)  returns 0x00 (0002ms, 0479ms total)
T04C0 000:597 JLINK_WriteU32(0xE000EDFC, 0x01000000) -- CPU_WriteMem(4 bytes @ 0xE000EDFC)  returns 0x00 (0001ms, 0480ms total)
T04C0 000:657 JLINK_GetHWStatus(...)  returns 0x00 (0000ms, 0480ms total)
T04C0 000:694 JLINK_GetNumBPUnits(Type = 0xFFFFFF00)  returns 0x06 (0000ms, 0480ms total)
T04C0 000:694 JLINK_GetNumBPUnits(Type = 0xF0)  returns 0x2000 (0000ms, 0480ms total)
T04C0 000:694 JLINK_GetNumWPUnits()  returns 0x04 (0000ms, 0480ms total)
T04C0 000:740 JLINK_GetSpeed()  returns 0x1F4 (0000ms, 0480ms total)
T04C0 000:785 JLINK_ReadMemU32(0xE000E004, 0x0001 Items, ...) -- CPU_ReadMem(4 bytes @ 0xE000E004) - Data: 02 00 00 00  returns 0x01 (0001ms, 0481ms total)
T04C0 000:786 JLINK_ReadMemU32(0xE000E004, 0x0001 Items, ...) -- CPU_ReadMem(4 bytes @ 0xE000E004) - Data: 02 00 00 00  returns 0x01 (0002ms, 0483ms total)
T04C0 000:788 JLINK_WriteMem(0xE0001000, 0x001C Bytes, ...) - Data: 01 00 00 00 00 00 00 00 00 00 00 00 00 00 00 00 ... -- CPU_WriteMem(28 bytes @ 0xE0001000)  returns 0x1C (0004ms, 0487ms total)
T04C0 000:792 JLINK_ReadMem (0xE0001000, 0x001C Bytes, ...) -- CPU_ReadMem(28 bytes @ 0xE0001000) - Data: 01 00 00 40 00 00 00 00 00 00 00 00 00 00 00 00 ...  returns 0x00 (0003ms, 0490ms total)
T04C0 000:795 JLINK_Halt()  returns 0x00 (0000ms, 0490ms total)
T04C0 000:795 JLINK_IsHalted()  returns TRUE (0000ms, 0490ms total)
T04C0 000:806 JLINK_WriteMem(0x20000000, 0x0198 Bytes, ...) - Data: 00 BE 0A E0 0D 78 2D 06 68 40 08 24 40 00 00 D3 ... -- CPU_WriteMem(408 bytes @ 0x20000000)  returns 0x198 (0021ms, 0511ms total)
T04C0 000:828 JLINK_WriteReg(R0, 0x08000000)  returns 0x00 (0000ms, 0511ms total)
T04C0 000:828 JLINK_WriteReg(R1, 0x0ABA9500)  returns 0x00 (0000ms, 0511ms total)
T04C0 000:828 JLINK_WriteReg(R2, 0x00000001)  returns 0x00 (0000ms, 0511ms total)
T04C0 000:828 JLINK_WriteReg(R3, 0x00000000)  returns 0x00 (0000ms, 0511ms total)
T04C0 000:828 JLINK_WriteReg(R4, 0x00000000)  returns 0x00 (0000ms, 0511ms total)
T04C0 000:828 JLINK_WriteReg(R5, 0x00000000)  returns 0x00 (0000ms, 0511ms total)
T04C0 000:828 JLINK_WriteReg(R6, 0x00000000)  returns 0x00 (0000ms, 0511ms total)
T04C0 000:828 JLINK_WriteReg(R7, 0x00000000)  returns 0x00 (0000ms, 0511ms total)
T04C0 000:828 JLINK_WriteReg(R8, 0x00000000)  returns 0x00 (0000ms, 0511ms total)
T04C0 000:828 JLINK_WriteReg(R9, 0x20000194)  returns 0x00 (0000ms, 0511ms total)
T04C0 000:828 JLINK_WriteReg(R10, 0x00000000)  returns 0x00 (0000ms, 0511ms total)
T04C0 000:828 JLINK_WriteReg(R11, 0x00000000)  returns 0x00 (0001ms, 0512ms total)
T04C0 000:829 JLINK_WriteReg(R12, 0x00000000)  returns 0x00 (0000ms, 0512ms total)
T04C0 000:829 JLINK_WriteReg(R13 (SP), 0x20001000)  returns 0x00 (0000ms, 0512ms total)
T04C0 000:829 JLINK_WriteReg(R14, 0x20000001)  returns 0x00 (0000ms, 0512ms total)
T04C0 000:829 JLINK_WriteReg(R15 (PC), 0x2000005E)  returns 0x00 (0000ms, 0512ms total)
T04C0 000:829 JLINK_WriteReg(XPSR, 0x01000000)  returns 0x00 (0001ms, 0513ms total)
T04C0 000:830 JLINK_WriteReg(MSP, 0x20001000)  returns 0x00 (0000ms, 0513ms total)
T04C0 000:830 JLINK_WriteReg(PSP, 0x20001000)  returns 0x00 (0000ms, 0513ms total)
T04C0 000:830 JLINK_WriteReg(CFBP, 0x00000000)  returns 0x00 (0000ms, 0513ms total)
T04C0 000:830 JLINK_SetBPEx(Addr = 0x20000000, Type = 0xFFFFFFF2) -- CPU_ReadMem(2 bytes @ 0x20000000)  returns 0x00000001 (0001ms, 0514ms total)
T04C0 000:831 JLINK_Go() -- CPU_WriteMem(2 bytes @ 0x20000000) -- CPU_ReadMem(4 bytes @ 0xE0001000) -- CPU_WriteMem(4 bytes @ 0xE0002008) -- CPU_WriteMem(4 bytes @ 0xE000200C) -- CPU_WriteMem(4 bytes @ 0xE0002010) -- CPU_WriteMem(4 bytes @ 0xE0002014) -- CPU_WriteMem(4 bytes @ 0xE0002018) -- CPU_WriteMem(4 bytes @ 0xE000201C) -- CPU_WriteMem(4 bytes @ 0xE0001004) (0018ms, 0532ms total)
T04C0 000:849 JLINK_IsHalted() -- CPU_ReadMem(2 bytes @ 0x20000000)  returns TRUE (0013ms, 0545ms total)
T04C0 000:862 JLINK_ReadReg(R15 (PC))  returns 0x20000000 (0000ms, 0532ms total)
T04C0 000:862 JLINK_ClrBPEx(BPHandle = 0x00000001)  returns 0x00 (0000ms, 0532ms total)
T04C0 000:862 JLINK_ReadReg(R0)  returns 0x00000000 (0000ms, 0532ms total)
T04C0 000:863 JLINK_WriteReg(R0, 0x08000000)  returns 0x00 (0001ms, 0533ms total)
T04C0 000:864 JLINK_WriteReg(R1, 0x00004000)  returns 0x00 (0000ms, 0533ms total)
T04C0 000:864 JLINK_WriteReg(R2, 0x000000FF)  returns 0x00 (0000ms, 0533ms total)
T04C0 000:864 JLINK_WriteReg(R3, 0x00000000)  returns 0x00 (0000ms, 0533ms total)
T04C0 000:864 JLINK_WriteReg(R4, 0x00000000)  returns 0x00 (0000ms, 0533ms total)
T04C0 000:864 JLINK_WriteReg(R5, 0x00000000)  returns 0x00 (0000ms, 0533ms total)
T04C0 000:864 JLINK_WriteReg(R6, 0x00000000)  returns 0x00 (0000ms, 0533ms total)
T04C0 000:864 JLINK_WriteReg(R7, 0x00000000)  returns 0x00 (0000ms, 0533ms total)
T04C0 000:864 JLINK_WriteReg(R8, 0x00000000)  returns 0x00 (0000ms, 0533ms total)
T04C0 000:864 JLINK_WriteReg(R9, 0x20000194)  returns 0x00 (0000ms, 0533ms total)
T04C0 000:864 JLINK_WriteReg(R10, 0x00000000)  returns 0x00 (0000ms, 0533ms total)
T04C0 000:864 JLINK_WriteReg(R11, 0x00000000)  returns 0x00 (0000ms, 0533ms total)
T04C0 000:864 JLINK_WriteReg(R12, 0x00000000)  returns 0x00 (0000ms, 0533ms total)
T04C0 000:864 JLINK_WriteReg(R13 (SP), 0x20001000)  returns 0x00 (0000ms, 0533ms total)
T04C0 000:864 JLINK_WriteReg(R14, 0x20000001)  returns 0x00 (0001ms, 0534ms total)
T04C0 000:865 JLINK_WriteReg(R15 (PC), 0x20000020)  returns 0x00 (0000ms, 0534ms total)
T04C0 000:865 JLINK_WriteReg(XPSR, 0x01000000)  returns 0x00 (0000ms, 0534ms total)
T04C0 000:865 JLINK_WriteReg(MSP, 0x20001000)  returns 0x00 (0000ms, 0534ms total)
T04C0 000:865 JLINK_WriteReg(PSP, 0x20001000)  returns 0x00 (0000ms, 0534ms total)
T04C0 000:865 JLINK_WriteReg(CFBP, 0x00000000)  returns 0x00 (0000ms, 0534ms total)
T04C0 000:865 JLINK_SetBPEx(Addr = 0x20000000, Type = 0xFFFFFFF2)  returns 0x00000002 (0000ms, 0534ms total)
T04C0 000:865 JLINK_Go() -- CPU_ReadMem(4 bytes @ 0xE0001000) (0007ms, 0541ms total)
T04C0 000:872 JLINK_IsHalted() -- CPU_ReadMem(2 bytes @ 0x20000000)  returns TRUE (0013ms, 0554ms total)
T04C0 000:885 JLINK_ReadReg(R15 (PC))  returns 0x20000000 (0000ms, 0541ms total)
T04C0 000:885 JLINK_ClrBPEx(BPHandle = 0x00000002)  returns 0x00 (0000ms, 0541ms total)
T04C0 000:885 JLINK_ReadReg(R0)  returns 0x00000001 (0000ms, 0541ms total)
T04C0 000:885 JLINK_WriteReg(R0, 0x08000000)  returns 0x00 (0000ms, 0541ms total)
T04C0 000:885 JLINK_WriteReg(R1, 0x00004000)  returns 0x00 (0000ms, 0541ms total)
T04C0 000:885 JLINK_WriteReg(R2, 0x000000FF)  returns 0x00 (0000ms, 0541ms total)
T04C0 000:885 JLINK_WriteReg(R3, 0x00000000)  returns 0x00 (0000ms, 0541ms total)
T04C0 000:885 JLINK_WriteReg(R4, 0x00000000)  returns 0x00 (0000ms, 0541ms total)
T04C0 000:885 JLINK_WriteReg(R5, 0x00000000)  returns 0x00 (0000ms, 0541ms total)
T04C0 000:885 JLINK_WriteReg(R6, 0x00000000)  returns 0x00 (0000ms, 0541ms total)
T04C0 000:885 JLINK_WriteReg(R7, 0x00000000)  returns 0x00 (0000ms, 0541ms total)
T04C0 000:885 JLINK_WriteReg(R8, 0x00000000)  returns 0x00 (0000ms, 0541ms total)
T04C0 000:885 JLINK_WriteReg(R9, 0x20000194)  returns 0x00 (0000ms, 0541ms total)
T04C0 000:886 JLINK_WriteReg(R10, 0x00000000)  returns 0x00 (0000ms, 0542ms total)
T04C0 000:886 JLINK_WriteReg(R11, 0x00000000)  returns 0x00 (0000ms, 0542ms total)
T04C0 000:886 JLINK_WriteReg(R12, 0x00000000)  returns 0x00 (0000ms, 0542ms total)
T04C0 000:886 JLINK_WriteReg(R13 (SP), 0x20001000)  returns 0x00 (0000ms, 0542ms total)
T04C0 000:886 JLINK_WriteReg(R14, 0x20000001)  returns 0x00 (0000ms, 0542ms total)
T04C0 000:886 JLINK_WriteReg(R15 (PC), 0x200000D4)  returns 0x00 (0000ms, 0542ms total)
T04C0 000:886 JLINK_WriteReg(XPSR, 0x01000000)  returns 0x00 (0000ms, 0542ms total)
T04C0 000:886 JLINK_WriteReg(MSP, 0x20001000)  returns 0x00 (0000ms, 0542ms total)
T04C0 000:886 JLINK_WriteReg(PSP, 0x20001000)  returns 0x00 (0000ms, 0542ms total)
T04C0 000:886 JLINK_WriteReg(CFBP, 0x00000000)  returns 0x00 (0000ms, 0542ms total)
T04C0 000:886 JLINK_SetBPEx(Addr = 0x20000000, Type = 0xFFFFFFF2)  returns 0x00000003 (0000ms, 0542ms total)
T04C0 000:886 JLINK_Go() -- CPU_ReadMem(4 bytes @ 0xE0001000) (0007ms, 0549ms total)
T04C0 000:893 JLINK_IsHalted()  returns FALSE (0001ms, 0550ms total)
T04C0 001:050 JLINK_IsHalted()  returns FALSE (0001ms, 0550ms total)
T04C0 001:057 JLINK_IsHalted()  returns FALSE (0001ms, 0550ms total)
T04C0 001:061 JLINK_IsHalted()  returns FALSE (0000ms, 0549ms total)
T04C0 001:063 JLINK_IsHalted()  returns FALSE (0001ms, 0550ms total)
T04C0 001:066 JLINK_IsHalted()  returns FALSE (0001ms, 0550ms total)
T04C0 001:069 JLINK_IsHalted()  returns FALSE (0001ms, 0550ms total)
T04C0 001:072 JLINK_IsHalted()  returns FALSE (0001ms, 0550ms total)
T04C0 001:075 JLINK_IsHalted()  returns FALSE (0001ms, 0550ms total)
T04C0 001:078 JLINK_IsHalted()  returns FALSE (0001ms, 0550ms total)
T04C0 001:081 JLINK_IsHalted()  returns FALSE (0001ms, 0550ms total)
T04C0 001:084 JLINK_IsHalted()  returns FALSE (0001ms, 0550ms total)
T04C0 001:087 JLINK_IsHalted()  returns FALSE (0001ms, 0550ms total)
T04C0 001:090 JLINK_IsHalted()  returns FALSE (0001ms, 0550ms total)
T04C0 001:093 JLINK_IsHalted()  returns FALSE (0001ms, 0550ms total)
T04C0 001:096 JLINK_IsHalted()  returns FALSE (0001ms, 0550ms total)
T04C0 001:099 JLINK_IsHalted()  returns FALSE (0001ms, 0550ms total)
T04C0 001:102 JLINK_IsHalted()  returns FALSE (0001ms, 0550ms total)
T04C0 001:105 JLINK_IsHalted()  returns FALSE (0001ms, 0550ms total)
T04C0 001:108 JLINK_IsHalted()  returns FALSE (0001ms, 0550ms total)
T04C0 001:111 JLINK_IsHalted()  returns FALSE (0001ms, 0550ms total)
T04C0 001:114 JLINK_IsHalted()  returns FALSE (0001ms, 0550ms total)
T04C0 001:117 JLINK_IsHalted()  returns FALSE (0001ms, 0550ms total)
T04C0 001:172 JLINK_IsHalted()  returns FALSE (0001ms, 0550ms total)
T04C0 001:175 JLINK_IsHalted()  returns FALSE (0001ms, 0550ms total)
T04C0 001:180 JLINK_IsHalted()  returns FALSE (0001ms, 0550ms total)
T04C0 001:183 JLINK_IsHalted()  returns FALSE (0001ms, 0550ms total)
T04C0 001:186 JLINK_IsHalted()  returns FALSE (0001ms, 0550ms total)
T04C0 001:189 JLINK_IsHalted()  returns FALSE (0001ms, 0550ms total)
T04C0 001:192 JLINK_IsHalted()  returns FALSE (0001ms, 0550ms total)
T04C0 001:195 JLINK_IsHalted()  returns FALSE (0001ms, 0550ms total)
T04C0 001:198 JLINK_IsHalted()  returns FALSE (0001ms, 0550ms total)
T04C0 001:201 JLINK_IsHalted()  returns FALSE (0001ms, 0550ms total)
T04C0 001:204 JLINK_IsHalted()  returns FALSE (0001ms, 0550ms total)
T04C0 001:207 JLINK_IsHalted()  returns FALSE (0001ms, 0550ms total)
T04C0 001:210 JLINK_IsHalted()  returns FALSE (0001ms, 0550ms total)
T04C0 001:213 JLINK_IsHalted()  returns FALSE (0001ms, 0550ms total)
T04C0 001:216 JLINK_IsHalted()  returns FALSE (0001ms, 0550ms total)
T04C0 001:219 JLINK_IsHalted()  returns FALSE (0001ms, 0550ms total)
T04C0 001:222 JLINK_IsHalted()  returns FALSE (0001ms, 0550ms total)
T04C0 001:225 JLINK_IsHalted()  returns FALSE (0001ms, 0550ms total)
T04C0 001:228 JLINK_IsHalted()  returns FALSE (0001ms, 0550ms total)
T04C0 001:235 JLINK_IsHalted() -- CPU_ReadMem(2 bytes @ 0x20000000)  returns TRUE (0013ms, 0562ms total)
T04C0 001:248 JLINK_ReadReg(R15 (PC))  returns 0x20000000 (0000ms, 0549ms total)
T04C0 001:248 JLINK_ClrBPEx(BPHandle = 0x00000003)  returns 0x00 (0000ms, 0549ms total)
T04C0 001:248 JLINK_ReadReg(R0)  returns 0x00000000 (0000ms, 0549ms total)
T04C0 001:249 JLINK_WriteReg(R0, 0x08004000)  returns 0x00 (0001ms, 0550ms total)
T04C0 001:250 JLINK_WriteReg(R1, 0x00004000)  returns 0x00 (0000ms, 0550ms total)
T04C0 001:250 JLINK_WriteReg(R2, 0x000000FF)  returns 0x00 (0000ms, 0550ms total)
T04C0 001:250 JLINK_WriteReg(R3, 0x00000000)  returns 0x00 (0000ms, 0550ms total)
T04C0 001:250 JLINK_WriteReg(R4, 0x00000000)  returns 0x00 (0000ms, 0550ms total)
T04C0 001:250 JLINK_WriteReg(R5, 0x00000000)  returns 0x00 (0000ms, 0550ms total)
T04C0 001:250 JLINK_WriteReg(R6, 0x00000000)  returns 0x00 (0000ms, 0550ms total)
T04C0 001:250 JLINK_WriteReg(R7, 0x00000000)  returns 0x00 (0000ms, 0550ms total)
T04C0 001:250 JLINK_WriteReg(R8, 0x00000000)  returns 0x00 (0000ms, 0550ms total)
T04C0 001:250 JLINK_WriteReg(R9, 0x20000194)  returns 0x00 (0000ms, 0550ms total)
T04C0 001:250 JLINK_WriteReg(R10, 0x00000000)  returns 0x00 (0000ms, 0550ms total)
T04C0 001:250 JLINK_WriteReg(R11, 0x00000000)  returns 0x00 (0000ms, 0550ms total)
T04C0 001:250 JLINK_WriteReg(R12, 0x00000000)  returns 0x00 (0000ms, 0550ms total)
T04C0 001:250 JLINK_WriteReg(R13 (SP), 0x20001000)  returns 0x00 (0000ms, 0550ms total)
T04C0 001:250 JLINK_WriteReg(R14, 0x20000001)  returns 0x00 (0001ms, 0551ms total)
T04C0 001:251 JLINK_WriteReg(R15 (PC), 0x20000020)  returns 0x00 (0000ms, 0551ms total)
T04C0 001:251 JLINK_WriteReg(XPSR, 0x01000000)  returns 0x00 (0000ms, 0551ms total)
T04C0 001:251 JLINK_WriteReg(MSP, 0x20001000)  returns 0x00 (0000ms, 0551ms total)
T04C0 001:251 JLINK_WriteReg(PSP, 0x20001000)  returns 0x00 (0000ms, 0551ms total)
T04C0 001:251 JLINK_WriteReg(CFBP, 0x00000000)  returns 0x00 (0000ms, 0551ms total)
T04C0 001:251 JLINK_SetBPEx(Addr = 0x20000000, Type = 0xFFFFFFF2)  returns 0x00000004 (0000ms, 0551ms total)
T04C0 001:251 JLINK_Go() -- CPU_ReadMem(4 bytes @ 0xE0001000) (0007ms, 0558ms total)
T04C0 001:258 JLINK_IsHalted() -- CPU_ReadMem(2 bytes @ 0x20000000)  returns TRUE (0014ms, 0572ms total)
T04C0 001:272 JLINK_ReadReg(R15 (PC))  returns 0x20000000 (0000ms, 0558ms total)
T04C0 001:272 JLINK_ClrBPEx(BPHandle = 0x00000004)  returns 0x00 (0000ms, 0558ms total)
T04C0 001:272 JLINK_ReadReg(R0)  returns 0x00000001 (0000ms, 0558ms total)
T04C0 001:272 JLINK_WriteReg(R0, 0x08004000)  returns 0x00 (0000ms, 0558ms total)
T04C0 001:272 JLINK_WriteReg(R1, 0x00004000)  returns 0x00 (0000ms, 0558ms total)
T04C0 001:272 JLINK_WriteReg(R2, 0x000000FF)  returns 0x00 (0000ms, 0558ms total)
T04C0 001:272 JLINK_WriteReg(R3, 0x00000000)  returns 0x00 (0000ms, 0558ms total)
T04C0 001:272 JLINK_WriteReg(R4, 0x00000000)  returns 0x00 (0000ms, 0558ms total)
T04C0 001:272 JLINK_WriteReg(R5, 0x00000000)  returns 0x00 (0000ms, 0558ms total)
T04C0 001:272 JLINK_WriteReg(R6, 0x00000000)  returns 0x00 (0000ms, 0558ms total)
T04C0 001:272 JLINK_WriteReg(R7, 0x00000000)  returns 0x00 (0000ms, 0558ms total)
T04C0 001:272 JLINK_WriteReg(R8, 0x00000000)  returns 0x00 (0000ms, 0558ms total)
T04C0 001:272 JLINK_WriteReg(R9, 0x20000194)  returns 0x00 (0000ms, 0558ms total)
T04C0 001:272 JLINK_WriteReg(R10, 0x00000000)  returns 0x00 (0000ms, 0558ms total)
T04C0 001:272 JLINK_WriteReg(R11, 0x00000000)  returns 0x00 (0000ms, 0558ms total)
T04C0 001:272 JLINK_WriteReg(R12, 0x00000000)  returns 0x00 (0001ms, 0559ms total)
T04C0 001:273 JLINK_WriteReg(R13 (SP), 0x20001000)  returns 0x00 (0000ms, 0559ms total)
T04C0 001:273 JLINK_WriteReg(R14, 0x20000001)  returns 0x00 (0000ms, 0559ms total)
T04C0 001:273 JLINK_WriteReg(R15 (PC), 0x200000D4)  returns 0x00 (0000ms, 0559ms total)
T04C0 001:273 JLINK_WriteReg(XPSR, 0x01000000)  returns 0x00 (0000ms, 0559ms total)
T04C0 001:273 JLINK_WriteReg(MSP, 0x20001000)  returns 0x00 (0000ms, 0559ms total)
T04C0 001:273 JLINK_WriteReg(PSP, 0x20001000)  returns 0x00 (0000ms, 0559ms total)
T04C0 001:273 JLINK_WriteReg(CFBP, 0x00000000)  returns 0x00 (0000ms, 0559ms total)
T04C0 001:273 JLINK_SetBPEx(Addr = 0x20000000, Type = 0xFFFFFFF2)  returns 0x00000005 (0000ms, 0559ms total)
T04C0 001:273 JLINK_Go() -- CPU_ReadMem(4 bytes @ 0xE0001000) (0006ms, 0565ms total)
T04C0 001:280 JLINK_IsHalted()  returns FALSE (0001ms, 0566ms total)
T04C0 001:283 JLINK_IsHalted()  returns FALSE (0001ms, 0566ms total)
T04C0 001:286 JLINK_IsHalted()  returns FALSE (0001ms, 0566ms total)
T04C0 001:290 JLINK_IsHalted()  returns FALSE (0001ms, 0566ms total)
T04C0 001:293 JLINK_IsHalted()  returns FALSE (0001ms, 0566ms total)
T04C0 001:296 JLINK_IsHalted()  returns FALSE (0001ms, 0566ms total)
T04C0 001:298 JLINK_IsHalted()  returns FALSE (0002ms, 0567ms total)
T04C0 001:302 JLINK_IsHalted()  returns FALSE (0001ms, 0566ms total)
T04C0 001:304 JLINK_IsHalted()  returns FALSE (0002ms, 0567ms total)
T04C0 001:308 JLINK_IsHalted()  returns FALSE (0001ms, 0566ms total)
T04C0 001:311 JLINK_IsHalted()  returns FALSE (0001ms, 0566ms total)
T04C0 001:314 JLINK_IsHalted()  returns FALSE (0001ms, 0566ms total)
T04C0 001:317 JLINK_IsHalted()  returns FALSE (0001ms, 0566ms total)
T04C0 001:320 JLINK_IsHalted()  returns FALSE (0001ms, 0566ms total)
T04C0 001:323 JLINK_IsHalted()  returns FALSE (0001ms, 0566ms total)
T04C0 001:326 JLINK_IsHalted()  returns FALSE (0002ms, 0567ms total)
T04C0 001:330 JLINK_IsHalted()  returns FALSE (0001ms, 0566ms total)
T04C0 001:342 JLINK_IsHalted()  returns FALSE (0001ms, 0566ms total)
T04C0 001:345 JLINK_IsHalted()  returns FALSE (0001ms, 0566ms total)
T04C0 001:348 JLINK_IsHalted()  returns FALSE (0001ms, 0566ms total)
T04C0 001:351 JLINK_IsHalted()  returns FALSE (0001ms, 0566ms total)
T04C0 001:354 JLINK_IsHalted()  returns FALSE (0001ms, 0566ms total)
T04C0 001:357 JLINK_IsHalted()  returns FALSE (0001ms, 0566ms total)
T04C0 001:360 JLINK_IsHalted()  returns FALSE (0001ms, 0566ms total)
T04C0 001:363 JLINK_IsHalted()  returns FALSE (0001ms, 0566ms total)
T04C0 001:366 JLINK_IsHalted()  returns FALSE (0001ms, 0566ms total)
T04C0 001:369 JLINK_IsHalted()  returns FALSE (0001ms, 0566ms total)
T04C0 001:372 JLINK_IsHalted()  returns FALSE (0001ms, 0566ms total)
T04C0 001:375 JLINK_IsHalted()  returns FALSE (0004ms, 0569ms total)
T04C0 001:381 JLINK_IsHalted()  returns FALSE (0001ms, 0566ms total)
T04C0 001:384 JLINK_IsHalted()  returns FALSE (0001ms, 0566ms total)
T04C0 001:387 JLINK_IsHalted()  returns FALSE (0001ms, 0566ms total)
T04C0 001:390 JLINK_IsHalted()  returns FALSE (0004ms, 0569ms total)
T04C0 001:396 JLINK_IsHalted()  returns FALSE (0001ms, 0566ms total)
T04C0 001:399 JLINK_IsHalted()  returns FALSE (0001ms, 0566ms total)
T04C0 001:402 JLINK_IsHalted()  returns FALSE (0001ms, 0566ms total)
T04C0 001:405 JLINK_IsHalted()  returns FALSE (0004ms, 0569ms total)
T04C0 001:411 JLINK_IsHalted()  returns FALSE (0001ms, 0566ms total)
T04C0 001:414 JLINK_IsHalted()  returns FALSE (0001ms, 0567ms total)
T04C0 001:417 JLINK_IsHalted()  returns FALSE (0001ms, 0567ms total)
T04C0 001:420 JLINK_IsHalted()  returns FALSE (0004ms, 0570ms total)
T04C0 001:426 JLINK_IsHalted()  returns FALSE (0001ms, 0567ms total)
T04C0 001:429 JLINK_IsHalted()  returns FALSE (0001ms, 0567ms total)
T04C0 001:432 JLINK_IsHalted()  returns FALSE (0001ms, 0567ms total)
T04C0 001:435 JLINK_IsHalted()  returns FALSE (0004ms, 0570ms total)
T04C0 001:441 JLINK_IsHalted()  returns FALSE (0001ms, 0567ms total)
T04C0 001:444 JLINK_IsHalted()  returns FALSE (0001ms, 0567ms total)
T04C0 001:447 JLINK_IsHalted()  returns FALSE (0001ms, 0567ms total)
T04C0 001:455 JLINK_IsHalted()  returns FALSE (0001ms, 0567ms total)
T04C0 001:458 JLINK_IsHalted()  returns FALSE (0001ms, 0567ms total)
T04C0 001:462 JLINK_IsHalted()  returns FALSE (0001ms, 0567ms total)
T04C0 001:465 JLINK_IsHalted()  returns FALSE (0004ms, 0570ms total)
T04C0 001:471 JLINK_IsHalted()  returns FALSE (0001ms, 0567ms total)
T04C0 001:474 JLINK_IsHalted()  returns FALSE (0001ms, 0567ms total)
T04C0 001:477 JLINK_IsHalted()  returns FALSE (0001ms, 0567ms total)
T04C0 001:480 JLINK_IsHalted()  returns FALSE (0004ms, 0570ms total)
T04C0 001:486 JLINK_IsHalted()  returns FALSE (0001ms, 0567ms total)
T04C0 001:489 JLINK_IsHalted()  returns FALSE (0001ms, 0567ms total)
T04C0 001:492 JLINK_IsHalted()  returns FALSE (0001ms, 0567ms total)
T04C0 001:495 JLINK_IsHalted()  returns FALSE (0004ms, 0570ms total)
T04C0 001:501 JLINK_IsHalted()  returns FALSE (0001ms, 0567ms total)
T04C0 001:504 JLINK_IsHalted()  returns FALSE (0001ms, 0567ms total)
T04C0 001:507 JLINK_IsHalted()  returns FALSE (0001ms, 0567ms total)
T04C0 001:520 JLINK_IsHalted()  returns FALSE (0001ms, 0567ms total)
T04C0 001:523 JLINK_IsHalted()  returns FALSE (0001ms, 0567ms total)
T04C0 001:527 JLINK_IsHalted()  returns FALSE (0003ms, 0569ms total)
T04C0 001:532 JLINK_IsHalted()  returns FALSE (0001ms, 0567ms total)
T04C0 001:535 JLINK_IsHalted()  returns FALSE (0001ms, 0567ms total)
T04C0 001:538 JLINK_IsHalted()  returns FALSE (0001ms, 0567ms total)
T04C0 001:541 JLINK_IsHalted()  returns FALSE (0004ms, 0570ms total)
T04C0 001:547 JLINK_IsHalted()  returns FALSE (0001ms, 0567ms total)
T04C0 001:550 JLINK_IsHalted()  returns FALSE (0001ms, 0567ms total)
T04C0 001:553 JLINK_IsHalted()  returns FALSE (0001ms, 0567ms total)
T04C0 001:569 JLINK_IsHalted()  returns FALSE (0005ms, 0571ms total)
T04C0 001:576 JLINK_IsHalted()  returns FALSE (0001ms, 0567ms total)
T04C0 001:580 JLINK_IsHalted()  returns FALSE (0001ms, 0567ms total)
T04C0 001:582 JLINK_IsHalted()  returns FALSE (0002ms, 0568ms total)
T04C0 001:586 JLINK_IsHalted()  returns FALSE (0003ms, 0569ms total)
T04C0 001:591 JLINK_IsHalted()  returns FALSE (0001ms, 0567ms total)
T04C0 001:595 JLINK_IsHalted()  returns FALSE (0001ms, 0567ms total)
T04C0 001:598 JLINK_IsHalted()  returns FALSE (0001ms, 0567ms total)
T04C0 001:601 JLINK_IsHalted()  returns FALSE (0003ms, 0569ms total)
T04C0 001:607 JLINK_IsHalted()  returns FALSE (0001ms, 0567ms total)
T04C0 001:610 JLINK_IsHalted()  returns FALSE (0001ms, 0567ms total)
T04C0 001:613 JLINK_IsHalted()  returns FALSE (0001ms, 0567ms total)
T04C0 001:616 JLINK_IsHalted()  returns FALSE (0004ms, 0570ms total)
T04C0 001:622 JLINK_IsHalted()  returns FALSE (0001ms, 0567ms total)
T04C0 001:625 JLINK_IsHalted()  returns FALSE (0000ms, 0566ms total)
T04C0 001:628 JLINK_IsHalted() -- CPU_ReadMem(2 bytes @ 0x20000000)  returns TRUE (0013ms, 0579ms total)
T04C0 001:641 JLINK_ReadReg(R15 (PC))  returns 0x20000000 (0000ms, 0566ms total)
T04C0 001:641 JLINK_ClrBPEx(BPHandle = 0x00000005)  returns 0x00 (0000ms, 0566ms total)
T04C0 001:641 JLINK_ReadReg(R0)  returns 0x00000000 (0000ms, 0566ms total)
T04C0 001:641 JLINK_WriteReg(R0, 0x00000001)  returns 0x00 (0000ms, 0566ms total)
T04C0 001:641 JLINK_WriteReg(R1, 0x00004000)  returns 0x00 (0000ms, 0566ms total)
T04C0 001:641 JLINK_WriteReg(R2, 0x000000FF)  returns 0x00 (0000ms, 0566ms total)
T04C0 001:641 JLINK_WriteReg(R3, 0x00000000)  returns 0x00 (0000ms, 0566ms total)
T04C0 001:641 JLINK_WriteReg(R4, 0x00000000)  returns 0x00 (0001ms, 0567ms total)
T04C0 001:642 JLINK_WriteReg(R5, 0x00000000)  returns 0x00 (0000ms, 0567ms total)
T04C0 001:642 JLINK_WriteReg(R6, 0x00000000)  returns 0x00 (0000ms, 0567ms total)
T04C0 001:642 JLINK_WriteReg(R7, 0x00000000)  returns 0x00 (0000ms, 0567ms total)
T04C0 001:642 JLINK_WriteReg(R8, 0x00000000)  returns 0x00 (0000ms, 0567ms total)
T04C0 001:642 JLINK_WriteReg(R9, 0x20000194)  returns 0x00 (0000ms, 0567ms total)
T04C0 001:642 JLINK_WriteReg(R10, 0x00000000)  returns 0x00 (0000ms, 0567ms total)
T04C0 001:642 JLINK_WriteReg(R11, 0x00000000)  returns 0x00 (0000ms, 0567ms total)
T04C0 001:642 JLINK_WriteReg(R12, 0x00000000)  returns 0x00 (0000ms, 0567ms total)
T04C0 001:642 JLINK_WriteReg(R13 (SP), 0x20001000)  returns 0x00 (0000ms, 0567ms total)
T04C0 001:642 JLINK_WriteReg(R14, 0x20000001)  returns 0x00 (0000ms, 0567ms total)
T04C0 001:642 JLINK_WriteReg(R15 (PC), 0x2000008C)  returns 0x00 (0000ms, 0567ms total)
T04C0 001:642 JLINK_WriteReg(XPSR, 0x01000000)  returns 0x00 (0000ms, 0567ms total)
T04C0 001:642 JLINK_WriteReg(MSP, 0x20001000)  returns 0x00 (0000ms, 0567ms total)
T04C0 001:643 JLINK_WriteReg(PSP, 0x20001000)  returns 0x00 (0000ms, 0568ms total)
T04C0 001:643 JLINK_WriteReg(CFBP, 0x00000000)  returns 0x00 (0001ms, 0569ms total)
T04C0 001:644 JLINK_SetBPEx(Addr = 0x20000000, Type = 0xFFFFFFF2)  returns 0x00000006 (0000ms, 0569ms total)
T04C0 001:644 JLINK_Go() -- CPU_ReadMem(4 bytes @ 0xE0001000) (0007ms, 0576ms total)
T04C0 001:651 JLINK_IsHalted() -- CPU_ReadMem(2 bytes @ 0x20000000)  returns TRUE (0013ms, 0589ms total)
T04C0 001:664 JLINK_ReadReg(R15 (PC))  returns 0x20000000 (0000ms, 0576ms total)
T04C0 001:664 JLINK_ClrBPEx(BPHandle = 0x00000006)  returns 0x00 (0000ms, 0576ms total)
T04C0 001:664 JLINK_ReadReg(R0)  returns 0x00000000 (0000ms, 0576ms total)
T04C0 001:737 JLINK_WriteMem(0x20000000, 0x0198 Bytes, ...) - Data: 00 BE 0A E0 0D 78 2D 06 68 40 08 24 40 00 00 D3 ... -- CPU_WriteMem(408 bytes @ 0x20000000)  returns 0x198 (0020ms, 0596ms total)
T04C0 001:758 JLINK_WriteReg(R0, 0x08000000)  returns 0x00 (0000ms, 0596ms total)
T04C0 001:758 JLINK_WriteReg(R1, 0x0ABA9500)  returns 0x00 (0000ms, 0596ms total)
T04C0 001:758 JLINK_WriteReg(R2, 0x00000002)  returns 0x00 (0000ms, 0596ms total)
T04C0 001:758 JLINK_WriteReg(R3, 0x00000000)  returns 0x00 (0000ms, 0596ms total)
T04C0 001:758 JLINK_WriteReg(R4, 0x00000000)  returns 0x00 (0000ms, 0596ms total)
T04C0 001:758 JLINK_WriteReg(R5, 0x00000000)  returns 0x00 (0000ms, 0596ms total)
T04C0 001:758 JLINK_WriteReg(R6, 0x00000000)  returns 0x00 (0000ms, 0596ms total)
T04C0 001:758 JLINK_WriteReg(R7, 0x00000000)  returns 0x00 (0000ms, 0596ms total)
T04C0 001:758 JLINK_WriteReg(R8, 0x00000000)  returns 0x00 (0000ms, 0596ms total)
T04C0 001:758 JLINK_WriteReg(R9, 0x20000194)  returns 0x00 (0000ms, 0596ms total)
T04C0 001:758 JLINK_WriteReg(R10, 0x00000000)  returns 0x00 (0000ms, 0596ms total)
T04C0 001:758 JLINK_WriteReg(R11, 0x00000000)  returns 0x00 (0000ms, 0596ms total)
T04C0 001:758 JLINK_WriteReg(R12, 0x00000000)  returns 0x00 (0001ms, 0597ms total)
T04C0 001:759 JLINK_WriteReg(R13 (SP), 0x20001000)  returns 0x00 (0000ms, 0597ms total)
T04C0 001:759 JLINK_WriteReg(R14, 0x20000001)  returns 0x00 (0000ms, 0597ms total)
T04C0 001:759 JLINK_WriteReg(R15 (PC), 0x2000005E)  returns 0x00 (0000ms, 0597ms total)
T04C0 001:759 JLINK_WriteReg(XPSR, 0x01000000)  returns 0x00 (0000ms, 0597ms total)
T04C0 001:759 JLINK_WriteReg(MSP, 0x20001000)  returns 0x00 (0000ms, 0597ms total)
T04C0 001:759 JLINK_WriteReg(PSP, 0x20001000)  returns 0x00 (0000ms, 0597ms total)
T04C0 001:759 JLINK_WriteReg(CFBP, 0x00000000)  returns 0x00 (0000ms, 0597ms total)
T04C0 001:759 JLINK_SetBPEx(Addr = 0x20000000, Type = 0xFFFFFFF2) -- CPU_ReadMem(2 bytes @ 0x20000000)  returns 0x00000007 (0004ms, 0601ms total)
T04C0 001:763 JLINK_Go() -- CPU_WriteMem(2 bytes @ 0x20000000) -- CPU_ReadMem(4 bytes @ 0xE0001000) (0008ms, 0609ms total)
T04C0 001:771 JLINK_IsHalted() -- CPU_ReadMem(2 bytes @ 0x20000000)  returns TRUE (0013ms, 0622ms total)
T04C0 001:784 JLINK_ReadReg(R15 (PC))  returns 0x20000000 (0000ms, 0609ms total)
T04C0 001:784 JLINK_ClrBPEx(BPHandle = 0x00000007)  returns 0x00 (0000ms, 0609ms total)
T04C0 001:784 JLINK_ReadReg(R0)  returns 0x00000000 (0001ms, 0610ms total)
T04C0 001:787 JLINK_WriteMem(0x20000198, 0x0400 Bytes, ...) - Data: 90 12 00 20 C1 01 00 08 3D 23 00 08 45 1D 00 08 ... -- CPU_WriteMem(1024 bytes @ 0x20000198)  returns 0x400 (0048ms, 0658ms total)
T04C0 001:835 JLINK_WriteReg(R0, 0x08000000)  returns 0x00 (0000ms, 0658ms total)
T04C0 001:835 JLINK_WriteReg(R1, 0x00000400)  returns 0x00 (0000ms, 0658ms total)
T04C0 001:835 JLINK_WriteReg(R2, 0x20000198)  returns 0x00 (0000ms, 0658ms total)
T04C0 001:835 JLINK_WriteReg(R3, 0x00000000)  returns 0x00 (0000ms, 0658ms total)
T04C0 001:835 JLINK_WriteReg(R4, 0x00000000)  returns 0x00 (0000ms, 0658ms total)
T04C0 001:835 JLINK_WriteReg(R5, 0x00000000)  returns 0x00 (0000ms, 0658ms total)
T04C0 001:835 JLINK_WriteReg(R6, 0x00000000)  returns 0x00 (0000ms, 0658ms total)
T04C0 001:835 JLINK_WriteReg(R7, 0x00000000)  returns 0x00 (0000ms, 0658ms total)
T04C0 001:835 JLINK_WriteReg(R8, 0x00000000)  returns 0x00 (0001ms, 0659ms total)
T04C0 001:836 JLINK_WriteReg(R9, 0x20000194)  returns 0x00 (0000ms, 0659ms total)
T04C0 001:836 JLINK_WriteReg(R10, 0x00000000)  returns 0x00 (0000ms, 0659ms total)
T04C0 001:836 JLINK_WriteReg(R11, 0x00000000)  returns 0x00 (0000ms, 0659ms total)
T04C0 001:836 JLINK_WriteReg(R12, 0x00000000)  returns 0x00 (0000ms, 0659ms total)
T04C0 001:836 JLINK_WriteReg(R13 (SP), 0x20001000)  returns 0x00 (0000ms, 0659ms total)
T04C0 001:836 JLINK_WriteReg(R14, 0x20000001)  returns 0x00 (0000ms, 0659ms total)
T04C0 001:836 JLINK_WriteReg(R15 (PC), 0x20000120)  returns 0x00 (0000ms, 0659ms total)
T04C0 001:836 JLINK_WriteReg(XPSR, 0x01000000)  returns 0x00 (0000ms, 0659ms total)
T04C0 001:836 JLINK_WriteReg(MSP, 0x20001000)  returns 0x00 (0000ms, 0659ms total)
T04C0 001:836 JLINK_WriteReg(PSP, 0x20001000)  returns 0x00 (0000ms, 0659ms total)
T04C0 001:836 JLINK_WriteReg(CFBP, 0x00000000)  returns 0x00 (0000ms, 0659ms total)
T04C0 001:836 JLINK_SetBPEx(Addr = 0x20000000, Type = 0xFFFFFFF2)  returns 0x00000008 (0000ms, 0659ms total)
T04C0 001:836 JLINK_Go() -- CPU_ReadMem(4 bytes @ 0xE0001000) (0010ms, 0669ms total)
T04C0 001:846 JLINK_IsHalted()  returns FALSE (0002ms, 0671ms total)
T04C0 001:864 JLINK_IsHalted() -- CPU_ReadMem(2 bytes @ 0x20000000)  returns TRUE (0013ms, 0682ms total)
T04C0 001:877 JLINK_ReadReg(R15 (PC))  returns 0x20000000 (0000ms, 0669ms total)
T04C0 001:877 JLINK_ClrBPEx(BPHandle = 0x00000008)  returns 0x00 (0000ms, 0669ms total)
T04C0 001:877 JLINK_ReadReg(R0)  returns 0x00000000 (0000ms, 0669ms total)
T04C0 001:879 JLINK_WriteMem(0x20000198, 0x0400 Bytes, ...) - Data: 02 8B B0 EE 40 8A B0 EE 48 0A FF F7 EB FE BD EC ... -- CPU_WriteMem(1024 bytes @ 0x20000198)  returns 0x400 (0048ms, 0717ms total)
T04C0 001:928 JLINK_WriteReg(R0, 0x08000400)  returns 0x00 (0000ms, 0717ms total)
T04C0 001:928 JLINK_WriteReg(R1, 0x00000400)  returns 0x00 (0000ms, 0717ms total)
T04C0 001:928 JLINK_WriteReg(R2, 0x20000198)  returns 0x00 (0000ms, 0717ms total)
T04C0 001:928 JLINK_WriteReg(R3, 0x00000000)  returns 0x00 (0000ms, 0717ms total)
T04C0 001:928 JLINK_WriteReg(R4, 0x00000000)  returns 0x00 (0000ms, 0717ms total)
T04C0 001:928 JLINK_WriteReg(R5, 0x00000000)  returns 0x00 (0000ms, 0717ms total)
T04C0 001:928 JLINK_WriteReg(R6, 0x00000000)  returns 0x00 (0000ms, 0717ms total)
T04C0 001:928 JLINK_WriteReg(R7, 0x00000000)  returns 0x00 (0000ms, 0717ms total)
T04C0 001:928 JLINK_WriteReg(R8, 0x00000000)  returns 0x00 (0000ms, 0717ms total)
T04C0 001:928 JLINK_WriteReg(R9, 0x20000194)  returns 0x00 (0000ms, 0717ms total)
T04C0 001:928 JLINK_WriteReg(R10, 0x00000000)  returns 0x00 (0000ms, 0717ms total)
T04C0 001:928 JLINK_WriteReg(R11, 0x00000000)  returns 0x00 (0000ms, 0717ms total)
T04C0 001:928 JLINK_WriteReg(R12, 0x00000000)  returns 0x00 (0000ms, 0717ms total)
T04C0 001:928 JLINK_WriteReg(R13 (SP), 0x20001000)  returns 0x00 (0000ms, 0717ms total)
T04C0 001:929 JLINK_WriteReg(R14, 0x20000001)  returns 0x00 (0000ms, 0718ms total)
T04C0 001:929 JLINK_WriteReg(R15 (PC), 0x20000120)  returns 0x00 (0000ms, 0718ms total)
T04C0 001:929 JLINK_WriteReg(XPSR, 0x01000000)  returns 0x00 (0000ms, 0718ms total)
T04C0 001:929 JLINK_WriteReg(MSP, 0x20001000)  returns 0x00 (0000ms, 0718ms total)
T04C0 001:929 JLINK_WriteReg(PSP, 0x20001000)  returns 0x00 (0000ms, 0718ms total)
T04C0 001:929 JLINK_WriteReg(CFBP, 0x00000000)  returns 0x00 (0000ms, 0718ms total)
T04C0 001:929 JLINK_SetBPEx(Addr = 0x20000000, Type = 0xFFFFFFF2)  returns 0x00000009 (0000ms, 0718ms total)
T04C0 001:929 JLINK_Go() -- CPU_ReadMem(4 bytes @ 0xE0001000) (0009ms, 0727ms total)
T04C0 001:938 JLINK_IsHalted()  returns FALSE (0002ms, 0729ms total)
T04C0 001:946 JLINK_IsHalted() -- CPU_ReadMem(2 bytes @ 0x20000000)  returns TRUE (0014ms, 0741ms total)
T04C0 001:960 JLINK_ReadReg(R15 (PC))  returns 0x20000000 (0000ms, 0727ms total)
T04C0 001:960 JLINK_ClrBPEx(BPHandle = 0x00000009)  returns 0x00 (0000ms, 0727ms total)
T04C0 001:960 JLINK_ReadReg(R0)  returns 0x00000000 (0000ms, 0727ms total)
T04C0 001:970 JLINK_WriteMem(0x20000198, 0x0400 Bytes, ...) - Data: 00 EE 81 0A 04 A8 00 EB 04 10 D0 ED 02 0A 95 ED ... -- CPU_WriteMem(1024 bytes @ 0x20000198)  returns 0x400 (0046ms, 0773ms total)
T04C0 002:016 JLINK_WriteReg(R0, 0x08000800)  returns 0x00 (0000ms, 0773ms total)
T04C0 002:016 JLINK_WriteReg(R1, 0x00000400)  returns 0x00 (0000ms, 0773ms total)
T04C0 002:016 JLINK_WriteReg(R2, 0x20000198)  returns 0x00 (0000ms, 0773ms total)
T04C0 002:016 JLINK_WriteReg(R3, 0x00000000)  returns 0x00 (0000ms, 0773ms total)
T04C0 002:016 JLINK_WriteReg(R4, 0x00000000)  returns 0x00 (0000ms, 0773ms total)
T04C0 002:016 JLINK_WriteReg(R5, 0x00000000)  returns 0x00 (0000ms, 0773ms total)
T04C0 002:016 JLINK_WriteReg(R6, 0x00000000)  returns 0x00 (0000ms, 0773ms total)
T04C0 002:016 JLINK_WriteReg(R7, 0x00000000)  returns 0x00 (0000ms, 0773ms total)
T04C0 002:016 JLINK_WriteReg(R8, 0x00000000)  returns 0x00 (0000ms, 0773ms total)
T04C0 002:016 JLINK_WriteReg(R9, 0x20000194)  returns 0x00 (0000ms, 0773ms total)
T04C0 002:016 JLINK_WriteReg(R10, 0x00000000)  returns 0x00 (0000ms, 0773ms total)
T04C0 002:016 JLINK_WriteReg(R11, 0x00000000)  returns 0x00 (0000ms, 0773ms total)
T04C0 002:016 JLINK_WriteReg(R12, 0x00000000)  returns 0x00 (0000ms, 0773ms total)
T04C0 002:016 JLINK_WriteReg(R13 (SP), 0x20001000)  returns 0x00 (0002ms, 0775ms total)
T04C0 002:018 JLINK_WriteReg(R14, 0x20000001)  returns 0x00 (0000ms, 0775ms total)
T04C0 002:018 JLINK_WriteReg(R15 (PC), 0x20000120)  returns 0x00 (0000ms, 0775ms total)
T04C0 002:018 JLINK_WriteReg(XPSR, 0x01000000)  returns 0x00 (0000ms, 0775ms total)
T04C0 002:018 JLINK_WriteReg(MSP, 0x20001000)  returns 0x00 (0000ms, 0775ms total)
T04C0 002:018 JLINK_WriteReg(PSP, 0x20001000)  returns 0x00 (0000ms, 0775ms total)
T04C0 002:018 JLINK_WriteReg(CFBP, 0x00000000)  returns 0x00 (0000ms, 0775ms total)
T04C0 002:018 JLINK_SetBPEx(Addr = 0x20000000, Type = 0xFFFFFFF2)  returns 0x0000000A (0000ms, 0775ms total)
T04C0 002:018 JLINK_Go() -- CPU_ReadMem(4 bytes @ 0xE0001000) (0009ms, 0784ms total)
T04C0 002:027 JLINK_IsHalted()  returns FALSE (0001ms, 0785ms total)
T04C0 002:052 JLINK_IsHalted() -- CPU_ReadMem(2 bytes @ 0x20000000)  returns TRUE (0013ms, 0797ms total)
T04C0 002:065 JLINK_ReadReg(R15 (PC))  returns 0x20000000 (0000ms, 0784ms total)
T04C0 002:065 JLINK_ClrBPEx(BPHandle = 0x0000000A)  returns 0x00 (0000ms, 0784ms total)
T04C0 002:065 JLINK_ReadReg(R0)  returns 0x00000000 (0000ms, 0784ms total)
T04C0 002:067 JLINK_WriteMem(0x20000198, 0x0400 Bytes, ...) - Data: 30 4A 40 32 84 7A 42 F8 34 30 02 88 83 88 42 EA ... -- CPU_WriteMem(1024 bytes @ 0x20000198)  returns 0x400 (0056ms, 0840ms total)
T04C0 002:124 JLINK_WriteReg(R0, 0x08000C00)  returns 0x00 (0000ms, 0840ms total)
T04C0 002:124 JLINK_WriteReg(R1, 0x00000400)  returns 0x00 (0000ms, 0840ms total)
T04C0 002:124 JLINK_WriteReg(R2, 0x20000198)  returns 0x00 (0000ms, 0840ms total)
T04C0 002:124 JLINK_WriteReg(R3, 0x00000000)  returns 0x00 (0000ms, 0840ms total)
T04C0 002:124 JLINK_WriteReg(R4, 0x00000000)  returns 0x00 (0000ms, 0840ms total)
T04C0 002:124 JLINK_WriteReg(R5, 0x00000000)  returns 0x00 (0000ms, 0840ms total)
T04C0 002:124 JLINK_WriteReg(R6, 0x00000000)  returns 0x00 (0000ms, 0840ms total)
T04C0 002:124 JLINK_WriteReg(R7, 0x00000000)  returns 0x00 (0000ms, 0840ms total)
T04C0 002:124 JLINK_WriteReg(R8, 0x00000000)  returns 0x00 (0000ms, 0840ms total)
T04C0 002:124 JLINK_WriteReg(R9, 0x20000194)  returns 0x00 (0000ms, 0840ms total)
T04C0 002:124 JLINK_WriteReg(R10, 0x00000000)  returns 0x00 (0000ms, 0840ms total)
T04C0 002:124 JLINK_WriteReg(R11, 0x00000000)  returns 0x00 (0000ms, 0840ms total)
T04C0 002:124 JLINK_WriteReg(R12, 0x00000000)  returns 0x00 (0000ms, 0840ms total)
T04C0 002:124 JLINK_WriteReg(R13 (SP), 0x20001000)  returns 0x00 (0000ms, 0840ms total)
T04C0 002:124 JLINK_WriteReg(R14, 0x20000001)  returns 0x00 (0000ms, 0840ms total)
T04C0 002:124 JLINK_WriteReg(R15 (PC), 0x20000120)  returns 0x00 (0000ms, 0840ms total)
T04C0 002:124 JLINK_WriteReg(XPSR, 0x01000000)  returns 0x00 (0000ms, 0840ms total)
T04C0 002:124 JLINK_WriteReg(MSP, 0x20001000)  returns 0x00 (0001ms, 0841ms total)
T04C0 002:125 JLINK_WriteReg(PSP, 0x20001000)  returns 0x00 (0000ms, 0841ms total)
T04C0 002:125 JLINK_WriteReg(CFBP, 0x00000000)  returns 0x00 (0000ms, 0841ms total)
T04C0 002:125 JLINK_SetBPEx(Addr = 0x20000000, Type = 0xFFFFFFF2)  returns 0x0000000B (0000ms, 0841ms total)
T04C0 002:125 JLINK_Go() -- CPU_ReadMem(4 bytes @ 0xE0001000) (0009ms, 0850ms total)
T04C0 002:134 JLINK_IsHalted()  returns FALSE (0002ms, 0852ms total)
T04C0 002:146 JLINK_IsHalted() -- CPU_ReadMem(2 bytes @ 0x20000000)  returns TRUE (0013ms, 0863ms total)
T04C0 002:159 JLINK_ReadReg(R15 (PC))  returns 0x20000000 (0000ms, 0850ms total)
T04C0 002:160 JLINK_ClrBPEx(BPHandle = 0x0000000B)  returns 0x00 (0000ms, 0850ms total)
T04C0 002:160 JLINK_ReadReg(R0)  returns 0x00000000 (0000ms, 0850ms total)
T04C0 002:162 JLINK_WriteMem(0x20000198, 0x0400 Bytes, ...) - Data: 81 71 C1 71 01 72 41 72 81 72 C1 72 81 70 C1 70 ... -- CPU_WriteMem(1024 bytes @ 0x20000198)  returns 0x400 (0047ms, 0897ms total)
T04C0 002:209 JLINK_WriteReg(R0, 0x08001000)  returns 0x00 (0000ms, 0897ms total)
T04C0 002:209 JLINK_WriteReg(R1, 0x00000400)  returns 0x00 (0000ms, 0897ms total)
T04C0 002:209 JLINK_WriteReg(R2, 0x20000198)  returns 0x00 (0000ms, 0897ms total)
T04C0 002:209 JLINK_WriteReg(R3, 0x00000000)  returns 0x00 (0000ms, 0897ms total)
T04C0 002:209 JLINK_WriteReg(R4, 0x00000000)  returns 0x00 (0000ms, 0897ms total)
T04C0 002:210 JLINK_WriteReg(R5, 0x00000000)  returns 0x00 (0000ms, 0897ms total)
T04C0 002:210 JLINK_WriteReg(R6, 0x00000000)  returns 0x00 (0000ms, 0897ms total)
T04C0 002:210 JLINK_WriteReg(R7, 0x00000000)  returns 0x00 (0000ms, 0897ms total)
T04C0 002:210 JLINK_WriteReg(R8, 0x00000000)  returns 0x00 (0000ms, 0897ms total)
T04C0 002:210 JLINK_WriteReg(R9, 0x20000194)  returns 0x00 (0000ms, 0897ms total)
T04C0 002:210 JLINK_WriteReg(R10, 0x00000000)  returns 0x00 (0000ms, 0897ms total)
T04C0 002:210 JLINK_WriteReg(R11, 0x00000000)  returns 0x00 (0000ms, 0897ms total)
T04C0 002:210 JLINK_WriteReg(R12, 0x00000000)  returns 0x00 (0000ms, 0897ms total)
T04C0 002:210 JLINK_WriteReg(R13 (SP), 0x20001000)  returns 0x00 (0000ms, 0897ms total)
T04C0 002:210 JLINK_WriteReg(R14, 0x20000001)  returns 0x00 (0001ms, 0898ms total)
T04C0 002:211 JLINK_WriteReg(R15 (PC), 0x20000120)  returns 0x00 (0000ms, 0898ms total)
T04C0 002:211 JLINK_WriteReg(XPSR, 0x01000000)  returns 0x00 (0000ms, 0898ms total)
T04C0 002:211 JLINK_WriteReg(MSP, 0x20001000)  returns 0x00 (0000ms, 0898ms total)
T04C0 002:211 JLINK_WriteReg(PSP, 0x20001000)  returns 0x00 (0000ms, 0898ms total)
T04C0 002:211 JLINK_WriteReg(CFBP, 0x00000000)  returns 0x00 (0000ms, 0898ms total)
T04C0 002:211 JLINK_SetBPEx(Addr = 0x20000000, Type = 0xFFFFFFF2)  returns 0x0000000C (0000ms, 0898ms total)
T04C0 002:211 JLINK_Go() -- CPU_ReadMem(4 bytes @ 0xE0001000) (0007ms, 0905ms total)
T04C0 002:218 JLINK_IsHalted()  returns FALSE (0001ms, 0906ms total)
T04C0 002:226 JLINK_IsHalted() -- CPU_ReadMem(2 bytes @ 0x20000000)  returns TRUE (0013ms, 0918ms total)
T04C0 002:239 JLINK_ReadReg(R15 (PC))  returns 0x20000000 (0000ms, 0905ms total)
T04C0 002:239 JLINK_ClrBPEx(BPHandle = 0x0000000C)  returns 0x00 (0000ms, 0905ms total)
T04C0 002:239 JLINK_ReadReg(R0)  returns 0x00000000 (0000ms, 0905ms total)
T04C0 002:244 JLINK_WriteMem(0x20000198, 0x0400 Bytes, ...) - Data: 00 00 25 44 10 B5 06 49 06 48 00 F0 0F F9 28 B1 ... -- CPU_WriteMem(1024 bytes @ 0x20000198)  returns 0x400 (0046ms, 0951ms total)
T04C0 002:291 JLINK_WriteReg(R0, 0x08001400)  returns 0x00 (0000ms, 0951ms total)
T04C0 002:291 JLINK_WriteReg(R1, 0x00000400)  returns 0x00 (0000ms, 0951ms total)
T04C0 002:291 JLINK_WriteReg(R2, 0x20000198)  returns 0x00 (0000ms, 0951ms total)
T04C0 002:291 JLINK_WriteReg(R3, 0x00000000)  returns 0x00 (0000ms, 0951ms total)
T04C0 002:291 JLINK_WriteReg(R4, 0x00000000)  returns 0x00 (0000ms, 0951ms total)
T04C0 002:291 JLINK_WriteReg(R5, 0x00000000)  returns 0x00 (0000ms, 0951ms total)
T04C0 002:291 JLINK_WriteReg(R6, 0x00000000)  returns 0x00 (0000ms, 0951ms total)
T04C0 002:291 JLINK_WriteReg(R7, 0x00000000)  returns 0x00 (0000ms, 0951ms total)
T04C0 002:291 JLINK_WriteReg(R8, 0x00000000)  returns 0x00 (0000ms, 0951ms total)
T04C0 002:292 JLINK_WriteReg(R9, 0x20000194)  returns 0x00 (0000ms, 0952ms total)
T04C0 002:292 JLINK_WriteReg(R10, 0x00000000)  returns 0x00 (0000ms, 0952ms total)
T04C0 002:292 JLINK_WriteReg(R11, 0x00000000)  returns 0x00 (0000ms, 0952ms total)
T04C0 002:292 JLINK_WriteReg(R12, 0x00000000)  returns 0x00 (0000ms, 0952ms total)
T04C0 002:292 JLINK_WriteReg(R13 (SP), 0x20001000)  returns 0x00 (0000ms, 0952ms total)
T04C0 002:292 JLINK_WriteReg(R14, 0x20000001)  returns 0x00 (0000ms, 0952ms total)
T04C0 002:292 JLINK_WriteReg(R15 (PC), 0x20000120)  returns 0x00 (0000ms, 0952ms total)
T04C0 002:292 JLINK_WriteReg(XPSR, 0x01000000)  returns 0x00 (0000ms, 0952ms total)
T04C0 002:292 JLINK_WriteReg(MSP, 0x20001000)  returns 0x00 (0000ms, 0952ms total)
T04C0 002:292 JLINK_WriteReg(PSP, 0x20001000)  returns 0x00 (0000ms, 0952ms total)
T04C0 002:292 JLINK_WriteReg(CFBP, 0x00000000)  returns 0x00 (0000ms, 0952ms total)
T04C0 002:292 JLINK_SetBPEx(Addr = 0x20000000, Type = 0xFFFFFFF2)  returns 0x0000000D (0000ms, 0952ms total)
T04C0 002:293 JLINK_Go() -- CPU_ReadMem(4 bytes @ 0xE0001000) (0007ms, 0959ms total)
T04C0 002:300 JLINK_IsHalted()  returns FALSE (0001ms, 0960ms total)
T04C0 002:303 JLINK_IsHalted()  returns FALSE (0001ms, 0960ms total)
T04C0 002:307 JLINK_IsHalted() -- CPU_ReadMem(2 bytes @ 0x20000000)  returns TRUE (0013ms, 0972ms total)
T04C0 002:320 JLINK_ReadReg(R15 (PC))  returns 0x20000000 (0000ms, 0959ms total)
T04C0 002:320 JLINK_ClrBPEx(BPHandle = 0x0000000D)  returns 0x00 (0000ms, 0959ms total)
T04C0 002:320 JLINK_ReadReg(R0)  returns 0x00000000 (0000ms, 0959ms total)
T04C0 002:323 JLINK_WriteMem(0x20000198, 0x0400 Bytes, ...) - Data: 12 68 91 B2 16 4A B2 F8 EA 02 03 F0 37 FF 84 ED ... -- CPU_WriteMem(1024 bytes @ 0x20000198)  returns 0x400 (0046ms, 1005ms total)
T04C0 002:369 JLINK_WriteReg(R0, 0x08001800)  returns 0x00 (0000ms, 1005ms total)
T04C0 002:369 JLINK_WriteReg(R1, 0x00000400)  returns 0x00 (0000ms, 1005ms total)
T04C0 002:369 JLINK_WriteReg(R2, 0x20000198)  returns 0x00 (0001ms, 1006ms total)
T04C0 002:370 JLINK_WriteReg(R3, 0x00000000)  returns 0x00 (0000ms, 1006ms total)
T04C0 002:370 JLINK_WriteReg(R4, 0x00000000)  returns 0x00 (0000ms, 1006ms total)
T04C0 002:370 JLINK_WriteReg(R5, 0x00000000)  returns 0x00 (0000ms, 1006ms total)
T04C0 002:370 JLINK_WriteReg(R6, 0x00000000)  returns 0x00 (0000ms, 1006ms total)
T04C0 002:370 JLINK_WriteReg(R7, 0x00000000)  returns 0x00 (0000ms, 1006ms total)
T04C0 002:370 JLINK_WriteReg(R8, 0x00000000)  returns 0x00 (0000ms, 1006ms total)
T04C0 002:370 JLINK_WriteReg(R9, 0x20000194)  returns 0x00 (0000ms, 1006ms total)
T04C0 002:370 JLINK_WriteReg(R10, 0x00000000)  returns 0x00 (0000ms, 1006ms total)
T04C0 002:370 JLINK_WriteReg(R11, 0x00000000)  returns 0x00 (0000ms, 1006ms total)
T04C0 002:370 JLINK_WriteReg(R12, 0x00000000)  returns 0x00 (0000ms, 1006ms total)
T04C0 002:370 JLINK_WriteReg(R13 (SP), 0x20001000)  returns 0x00 (0000ms, 1006ms total)
T04C0 002:370 JLINK_WriteReg(R14, 0x20000001)  returns 0x00 (0000ms, 1006ms total)
